T9DF0 16640:160.344   SEGGER J-Link V6.86g Log File
T9DF0 16640:160.395   DLL Compiled: Nov  6 2020 18:11:59
T9DF0 16640:160.401   Logging started @ 2025-06-03 10:11
T9DF0 16640:160.405 - 1064.078ms
T9DF0 16640:160.415 JLINK_SetWarnOutHandler(...)
T9DF0 16640:160.420 - 0.006ms
T9DF0 16640:160.426 JLINK_OpenEx(...)
T9DF0 16640:161.624   Firmware: J-Link  V12 compiled Aug 2 2023 20:54:37
T9DF0 16640:164.121   Hardware: V12.00
T9DF0 16640:164.128   S/N: 601012413
T9DF0 16640:164.134   OEM: SEGGER
T9DF0 16640:164.139   Feature(s): FlashBP, GDB, JFlash, FlashDL, RDI
T9DF0 16640:165.145   TELNET listener socket opened on port 19021
T9DF0 16640:167.762   WEBSRV Starting webserver
T9DF0 16640:167.850   WEBSRV Webserver running on local port 19080
T9DF0 16640:167.857 - 7.433ms returns "O.K."
T9DF0 16640:167.870 JLINK_GetEmuCaps()
T9DF0 16640:167.874 - 0.006ms returns 0xB9FF7BBF
T9DF0 16640:167.900 JLINK_TIF_GetAvailable(...)
T9DF0 16640:168.039 - 0.141ms
T9DF0 16640:168.047 JLINK_SetErrorOutHandler(...)
T9DF0 16640:168.051 - 0.006ms
T9DF0 16640:168.254 JLINK_ExecCommand("ProjectFile = "E:\控制器资料\新长板单体贯流蒸汽 V1.3.0\程序\UART\USER\JLinkSettings.ini"", ...). 
T9DF0 16640:169.299 - 1.049ms returns 0x00
T9DF0 16640:188.239 JLINK_ExecCommand("Device = STM32F103VC", ...). 
T9DF0 16640:192.117   Device "STM32F103VC" selected.
T9DF0 16640:192.524 - 4.272ms returns 0x00
T9DF0 16640:192.552 JLINK_GetHardwareVersion()
T9DF0 16640:192.557 - 0.007ms returns 120000
T9DF0 16640:192.562 JLINK_GetDLLVersion()
T9DF0 16640:192.567 - 0.006ms returns 68607
T9DF0 16640:192.572 JLINK_GetOEMString(...)
T9DF0 16640:192.578 JLINK_GetFirmwareString(...)
T9DF0 16640:192.582 - 0.005ms
T9DF0 16640:215.918 JLINK_GetDLLVersion()
T9DF0 16640:215.940 - 0.024ms returns 68607
T9DF0 16640:215.951 JLINK_GetCompileDateTime()
T9DF0 16640:215.955 - 0.005ms
T9DF0 16640:218.347 JLINK_GetFirmwareString(...)
T9DF0 16640:218.363 - 0.017ms
T9DF0 16640:222.198 JLINK_GetHardwareVersion()
T9DF0 16640:222.213 - 0.016ms returns 120000
T9DF0 16640:224.598 JLINK_GetSN()
T9DF0 16640:224.611 - 0.015ms returns 601012413
T9DF0 16640:226.957 JLINK_GetOEMString(...)
T9DF0 16640:231.630 JLINK_TIF_Select(JLINKARM_TIF_SWD)
T9DF0 16640:232.371 - 0.745ms returns 0x00
T9DF0 16640:232.382 JLINK_HasError()
T9DF0 16640:232.388 JLINK_SetSpeed(20000)
T9DF0 16640:232.578 - 0.193ms
T9DF0 16640:232.586 JLINK_GetId()
T9DF0 16640:235.721   Found SW-DP with ID 0x1BA01477
T9DF0 16640:251.922   Active read protected STM32 device detected.
This could cause problems during flash download.
Note: Unsecuring will trigger a mass erase of the internal flash.
T9DF0 16640:255.413   Executing default behavior previously saved in the registry.
T9DF0 16640:257.860   Device will be unsecured now.
T9DF0 16640:334.291   Found SW-DP with ID 0x1BA01477
T9DF0 16640:353.430   Found SW-DP with ID 0x1BA01477
T9DF0 16640:357.932   DPIDR: 0x1BA01477
T9DF0 16640:361.442   Scanning AP map to find all available APs
T9DF0 16640:364.398   AP[1]: Stopped AP scan as end of AP map has been reached
T9DF0 16640:366.982   AP[0]: AHB-AP (IDR: 0x14770011)
T9DF0 16640:369.430   Iterating through AP map to find AHB-AP to use
T9DF0 16640:372.014   AP[0]: Core found
T9DF0 16640:374.310   AP[0]: AHB-AP ROM base: 0xE00FF000
T9DF0 16640:376.817   CPUID register: 0x411FC231. Implementer code: 0x41 (ARM)
T9DF0 16640:379.667   Found Cortex-M3 r1p1, Little endian.
T9DF0 16640:480.900   -- Max. mem block: 0x00005B68
T9DF0 16640:480.964   CPU_ReadMem(4 bytes @ 0xE000EDF0)
T9DF0 16640:481.332   CPU_ReadMem(4 bytes @ 0xE0002000)
T9DF0 16640:491.290   FPUnit: 6 code (BP) slots and 2 literal slots
T9DF0 16640:491.323   CPU_ReadMem(4 bytes @ 0xE000EDFC)
T9DF0 16640:491.512   CPU_WriteMem(4 bytes @ 0xE000EDFC)
T9DF0 16640:491.686   CPU_ReadMem(4 bytes @ 0xE0001000)
T9DF0 16640:491.926   CPU_WriteMem(4 bytes @ 0xE0001000)
T9DF0 16640:492.175   CPU_ReadMem(4 bytes @ 0xE000ED88)
T9DF0 16640:492.422   CPU_WriteMem(4 bytes @ 0xE000ED88)
T9DF0 16640:492.676   CPU_ReadMem(4 bytes @ 0xE000ED88)
T9DF0 16640:492.948   CPU_WriteMem(4 bytes @ 0xE000ED88)
T9DF0 16640:495.959   CoreSight components:
T9DF0 16640:498.196   ROMTbl[0] @ E00FF000
T9DF0 16640:498.212   CPU_ReadMem(64 bytes @ 0xE00FF000)
T9DF0 16640:498.566   CPU_ReadMem(32 bytes @ 0xE000EFE0)
T9DF0 16640:501.738   ROMTbl[0][0]: E000E000, CID: B105E00D, PID: 001BB000 SCS
T9DF0 16640:501.755   CPU_ReadMem(32 bytes @ 0xE0001FE0)
T9DF0 16640:504.304   ROMTbl[0][1]: E0001000, CID: B105E00D, PID: 001BB002 DWT
T9DF0 16640:504.321   CPU_ReadMem(32 bytes @ 0xE0002FE0)
T9DF0 16640:506.844   ROMTbl[0][2]: E0002000, CID: B105E00D, PID: 000BB003 FPB
T9DF0 16640:506.858   CPU_ReadMem(32 bytes @ 0xE0000FE0)
T9DF0 16640:509.318   ROMTbl[0][3]: E0000000, CID: B105E00D, PID: 001BB001 ITM
T9DF0 16640:509.335   CPU_ReadMem(32 bytes @ 0xE0040FE0)
T9DF0 16640:512.001   ROMTbl[0][4]: E0040000, CID: B105900D, PID: 001BB923 TPIU-Lite
T9DF0 16640:512.019   CPU_ReadMem(32 bytes @ 0xE0041FE0)
T9DF0 16640:514.484   ROMTbl[0][5]: E0041000, CID: B105900D, PID: 101BB924 ETM-M3
T9DF0 16640:514.673 - 282.104ms returns 0x1BA01477
T9DF0 16640:514.699 JLINK_GetDLLVersion()
T9DF0 16640:514.703 - 0.006ms returns 68607
T9DF0 16640:515.066 JLINK_CORE_GetFound()
T9DF0 16640:515.091 - 0.034ms returns 0x30000FF
T9DF0 16640:515.116 JLINK_GetDebugInfo(0x100 = JLINKARM_ROM_TABLE_ADDR_INDEX)
T9DF0 16640:515.121   Value=0xE00FF000
T9DF0 16640:515.127 - 0.012ms returns 0
T9DF0 16640:518.551 JLINK_GetDebugInfo(0x100 = JLINKARM_ROM_TABLE_ADDR_INDEX)
T9DF0 16640:518.566   Value=0xE00FF000
T9DF0 16640:518.572 - 0.024ms returns 0
T9DF0 16640:518.578 JLINK_GetDebugInfo(0x101 = JLINKARM_DEBUG_INFO_ETM_ADDR_INDEX)
T9DF0 16640:518.583   Value=0xE0041000
T9DF0 16640:518.588 - 0.011ms returns 0
T9DF0 16640:518.598 JLINK_ReadMemEx(0xE0041FD0, 0x20 Bytes, Flags = 0x02000004)
T9DF0 16640:518.611   CPU_ReadMem(32 bytes @ 0xE0041FD0)
T9DF0 16640:518.853   Data:  04 00 00 00 00 00 00 00 00 00 00 00 00 00 00 00 ...
T9DF0 16640:518.865 - 0.269ms returns 32 (0x20)
T9DF0 16640:518.873 JLINK_GetDebugInfo(0x102 = JLINKARM_DEBUG_INFO_MTB_ADDR_INDEX)
T9DF0 16640:518.877   Value=0x00000000
T9DF0 16640:518.883 - 0.012ms returns 0
T9DF0 16640:518.888 JLINK_GetDebugInfo(0x103 = JLINKARM_DEBUG_INFO_TPIU_ADDR_INDEX)
T9DF0 16640:518.892   Value=0xE0040000
T9DF0 16640:518.897 - 0.011ms returns 0
T9DF0 16640:518.902 JLINK_GetDebugInfo(0x104 = JLINKARM_DEBUG_INFO_ITM_ADDR_INDEX)
T9DF0 16640:518.906   Value=0xE0000000
T9DF0 16640:518.912 - 0.011ms returns 0
T9DF0 16640:518.916 JLINK_GetDebugInfo(0x105 = JLINKARM_DEBUG_INFO_DWT_ADDR_INDEX)
T9DF0 16640:518.920   Value=0xE0001000
T9DF0 16640:518.926 - 0.011ms returns 0
T9DF0 16640:518.930 JLINK_GetDebugInfo(0x106 = JLINKARM_DEBUG_INFO_FPB_ADDR_INDEX)
T9DF0 16640:518.934   Value=0xE0002000
T9DF0 16640:518.939 - 0.011ms returns 0
T9DF0 16640:518.944 JLINK_GetDebugInfo(0x107 = JLINKARM_DEBUG_INFO_NVIC_ADDR_INDEX)
T9DF0 16640:518.948   Value=0xE000E000
T9DF0 16640:518.953 - 0.011ms returns 0
T9DF0 16640:518.958 JLINK_GetDebugInfo(0x10C = JLINKARM_DEBUG_INFO_DBG_ADDR_INDEX)
T9DF0 16640:518.962   Value=0xE000EDF0
T9DF0 16640:518.967 - 0.011ms returns 0
T9DF0 16640:518.972 JLINK_GetDebugInfo(0x01 = Unknown)
T9DF0 16640:518.977   Value=0x00000000
T9DF0 16640:518.982 - 0.011ms returns 0
T9DF0 16640:518.989 JLINK_ReadMemU32(0xE000ED00, 0x1 Items)
T9DF0 16640:518.998   CPU_ReadMem(4 bytes @ 0xE000ED00)
T9DF0 16640:519.176   Data:  31 C2 1F 41
T9DF0 16640:519.183   Debug reg: CPUID
T9DF0 16640:519.188 - 0.200ms returns 1 (0x1)
T9DF0 16640:519.194 JLINK_GetDebugInfo(0x10F = JLINKARM_DEBUG_INFO_HAS_CORTEX_M_SECURITY_EXT_INDEX)
T9DF0 16640:519.198   Value=0x00000000
T9DF0 16640:519.203 - 0.011ms returns 0
T9DF0 16640:519.208 JLINK_HasError()
T9DF0 16640:519.215 JLINK_SetResetType(JLINKARM_CM3_RESET_TYPE_NORMAL)
T9DF0 16640:519.219 - 0.006ms returns JLINKARM_CM3_RESET_TYPE_NORMAL
T9DF0 16640:519.224 JLINK_Reset()
T9DF0 16640:519.231   CPU is running
T9DF0 16640:519.237   CPU_WriteMem(4 bytes @ 0xE000EDF0)
T9DF0 16640:519.423   CPU is running
T9DF0 16640:519.438   CPU_WriteMem(4 bytes @ 0xE000EDFC)
T9DF0 16640:522.009   Reset: Halt core after reset via DEMCR.VC_CORERESET.
T9DF0 16640:524.588   Reset: Reset device via AIRCR.SYSRESETREQ.
T9DF0 16640:524.600   CPU is running
T9DF0 16640:524.607   CPU_WriteMem(4 bytes @ 0xE000ED0C)
T9DF0 16640:578.178   CPU_ReadMem(4 bytes @ 0xE000EDF0)
T9DF0 16640:578.664   CPU_ReadMem(4 bytes @ 0xE000EDF0)
T9DF0 16640:578.936   CPU is running
T9DF0 16640:578.969   CPU_WriteMem(4 bytes @ 0xE000EDF0)
T9DF0 16640:579.257   CPU is running
T9DF0 16640:579.286   CPU_WriteMem(4 bytes @ 0xE000EDFC)
T9DF0 16640:585.480   CPU_ReadMem(4 bytes @ 0xE000EDF0)
T9DF0 16640:586.856   CPU_WriteMem(4 bytes @ 0xE0002000)
T9DF0 16640:587.072   CPU_ReadMem(4 bytes @ 0xE000EDFC)
T9DF0 16640:587.314   CPU_ReadMem(4 bytes @ 0xE0001000)
T9DF0 16640:587.580 - 68.364ms
T9DF0 16640:588.500 JLINK_Halt()
T9DF0 16640:588.524 - 0.030ms returns 0x00
T9DF0 16640:588.541 JLINK_ReadMemU32(0xE000EDF0, 0x1 Items)
T9DF0 16640:588.564   CPU_ReadMem(4 bytes @ 0xE000EDF0)
T9DF0 16640:588.798   Data:  03 00 03 00
T9DF0 16640:588.819   Debug reg: DHCSR
T9DF0 16640:588.836 - 0.300ms returns 1 (0x1)
T9DF0 16640:588.856 JLINK_WriteU32_64(0xE000EDF0, 0xA05F0003)
T9DF0 16640:588.869   Debug reg: DHCSR
T9DF0 16640:588.898   CPU_WriteMem(4 bytes @ 0xE000EDF0)
T9DF0 16640:589.112 - 0.263ms returns 0 (0x00000000)
T9DF0 16640:589.130 JLINK_WriteU32_64(0xE000EDFC, 0x01000000)
T9DF0 16640:589.143   Debug reg: DEMCR
T9DF0 16640:589.164   CPU_WriteMem(4 bytes @ 0xE000EDFC)
T9DF0 16640:589.364 - 0.241ms returns 0 (0x00000000)
T9DF0 16640:608.074 JLINK_GetHWStatus(...)
T9DF0 16640:608.295 - 0.232ms returns 0
T9DF0 16640:619.147 JLINK_GetNumBPUnits(Type = 0xFFFFFF00)
T9DF0 16640:619.176 - 0.031ms returns 0x06
T9DF0 16640:619.182 JLINK_GetNumBPUnits(Type = 0xF0)
T9DF0 16640:619.186 - 0.006ms returns 0x2000
T9DF0 16640:619.191 JLINK_GetNumWPUnits()
T9DF0 16640:619.195 - 0.005ms returns 4
T9DF0 16640:629.268 JLINK_GetSpeed()
T9DF0 16640:629.301 - 0.035ms returns 15000
T9DF0 16640:634.348 JLINK_ReadMemU32(0xE000E004, 0x1 Items)
T9DF0 16640:634.392   CPU_ReadMem(4 bytes @ 0xE000E004)
T9DF0 16640:634.605   Data:  01 00 00 00
T9DF0 16640:634.614 - 0.268ms returns 1 (0x1)
T9DF0 16640:634.621 JLINK_ReadMemU32(0xE000E004, 0x1 Items)
T9DF0 16640:634.627   CPU_ReadMem(4 bytes @ 0xE000E004)
T9DF0 16640:634.785   Data:  01 00 00 00
T9DF0 16640:634.792 - 0.172ms returns 1 (0x1)
T9DF0 16640:634.805 JLINK_WriteMemEx(0xE0001000, 0x0000001C Bytes, Flags = 0x02000004)
T9DF0 16640:634.810   Data:  01 00 00 00 00 00 00 00 00 00 00 00 00 00 00 00 ...
T9DF0 16640:635.225   CPU_WriteMem(28 bytes @ 0xE0001000)
T9DF0 16640:635.430 - 0.629ms returns 0x1C
T9DF0 16640:642.095 JLINK_Halt()
T9DF0 16640:642.126 - 0.033ms returns 0x00
T9DF0 16640:642.139 JLINK_IsHalted()
T9DF0 16640:642.145 - 0.008ms returns TRUE
T9DF0 16640:646.694 JLINK_WriteMem(0x20000000, 0x164 Bytes, ...)
T9DF0 16640:646.712   Data:  00 BE 0A E0 0D 78 2D 06 68 40 08 24 40 00 00 D3 ...
T9DF0 16640:646.985   CPU_WriteMem(356 bytes @ 0x20000000)
T9DF0 16640:647.660 - 0.977ms returns 0x164
T9DF0 16640:647.702 JLINK_HasError()
T9DF0 16640:647.712 JLINK_WriteReg(R0, 0x08000000)
T9DF0 16640:647.719 - 0.008ms returns 0
T9DF0 16640:647.723 JLINK_WriteReg(R1, 0x00B71B00)
T9DF0 16640:647.728 - 0.006ms returns 0
T9DF0 16640:647.732 JLINK_WriteReg(R2, 0x00000001)
T9DF0 16640:647.736 - 0.006ms returns 0
T9DF0 16640:647.741 JLINK_WriteReg(R3, 0x00000000)
T9DF0 16640:647.745 - 0.005ms returns 0
T9DF0 16640:647.749 JLINK_WriteReg(R4, 0x00000000)
T9DF0 16640:647.753 - 0.006ms returns 0
T9DF0 16640:647.758 JLINK_WriteReg(R5, 0x00000000)
T9DF0 16640:647.762 - 0.005ms returns 0
T9DF0 16640:647.766 JLINK_WriteReg(R6, 0x00000000)
T9DF0 16640:647.770 - 0.006ms returns 0
T9DF0 16640:647.775 JLINK_WriteReg(R7, 0x00000000)
T9DF0 16640:647.779 - 0.005ms returns 0
T9DF0 16640:647.784 JLINK_WriteReg(R8, 0x00000000)
T9DF0 16640:647.788 - 0.006ms returns 0
T9DF0 16640:647.793 JLINK_WriteReg(R9, 0x20000160)
T9DF0 16640:647.800 - 0.012ms returns 0
T9DF0 16640:647.807 JLINK_WriteReg(R10, 0x00000000)
T9DF0 16640:647.811 - 0.006ms returns 0
T9DF0 16640:647.816 JLINK_WriteReg(R11, 0x00000000)
T9DF0 16640:647.820 - 0.006ms returns 0
T9DF0 16640:647.825 JLINK_WriteReg(R12, 0x00000000)
T9DF0 16640:647.829 - 0.005ms returns 0
T9DF0 16640:647.834 JLINK_WriteReg(R13 (SP), 0x20000800)
T9DF0 16640:647.839 - 0.007ms returns 0
T9DF0 16640:647.843 JLINK_WriteReg(R14, 0x20000001)
T9DF0 16640:647.847 - 0.006ms returns 0
T9DF0 16640:647.852 JLINK_WriteReg(R15 (PC), 0x20000038)
T9DF0 16640:647.856 - 0.006ms returns 0
T9DF0 16640:647.861 JLINK_WriteReg(XPSR, 0x01000000)
T9DF0 16640:647.865 - 0.006ms returns 0
T9DF0 16640:647.870 JLINK_WriteReg(MSP, 0x20000800)
T9DF0 16640:647.874 - 0.005ms returns 0
T9DF0 16640:647.878 JLINK_WriteReg(PSP, 0x20000800)
T9DF0 16640:647.882 - 0.006ms returns 0
T9DF0 16640:647.888 JLINK_WriteReg(CFBP, 0x00000000)
T9DF0 16640:647.893 - 0.006ms returns 0
T9DF0 16640:647.899 JLINK_SetBPEx(Addr = 0x20000000, Type = 0xFFFFFFF2)
T9DF0 16640:647.908   CPU_ReadMem(2 bytes @ 0x20000000)
T9DF0 16640:648.106 - 0.210ms returns 0x00000001
T9DF0 16640:648.114 JLINK_Go()
T9DF0 16640:648.121   CPU_WriteMem(2 bytes @ 0x20000000)
T9DF0 16640:648.335   CPU_ReadMem(4 bytes @ 0xE0001000)
T9DF0 16640:648.560   CPU_WriteMem(4 bytes @ 0xE0002008)
T9DF0 16640:648.576   CPU_WriteMem(4 bytes @ 0xE000200C)
T9DF0 16640:648.583   CPU_WriteMem(4 bytes @ 0xE0002010)
T9DF0 16640:648.589   CPU_WriteMem(4 bytes @ 0xE0002014)
T9DF0 16640:648.594   CPU_WriteMem(4 bytes @ 0xE0002018)
T9DF0 16640:648.600   CPU_WriteMem(4 bytes @ 0xE000201C)
T9DF0 16640:649.123   CPU_WriteMem(4 bytes @ 0xE0001004)
T9DF0 16640:650.344 - 2.233ms
T9DF0 16640:650.353 JLINK_IsHalted()
T9DF0 16640:651.448   CPU_ReadMem(2 bytes @ 0x20000000)
T9DF0 16640:651.625 - 1.274ms returns TRUE
T9DF0 16640:651.635 JLINK_ReadReg(R15 (PC))
T9DF0 16640:651.641 - 0.007ms returns 0x20000000
T9DF0 16640:651.647 JLINK_ClrBPEx(BPHandle = 0x00000001)
T9DF0 16640:651.651 - 0.006ms returns 0x00
T9DF0 16640:651.656 JLINK_ReadReg(R0)
T9DF0 16640:651.660 - 0.006ms returns 0x00000000
T9DF0 16640:651.930 JLINK_HasError()
T9DF0 16640:651.937 JLINK_WriteReg(R0, 0x08000000)
T9DF0 16640:651.943 - 0.007ms returns 0
T9DF0 16640:651.948 JLINK_WriteReg(R1, 0x00B71B00)
T9DF0 16640:651.952 - 0.006ms returns 0
T9DF0 16640:651.956 JLINK_WriteReg(R2, 0x00000001)
T9DF0 16640:651.960 - 0.006ms returns 0
T9DF0 16640:651.965 JLINK_WriteReg(R3, 0x00000000)
T9DF0 16640:651.969 - 0.006ms returns 0
T9DF0 16640:651.974 JLINK_WriteReg(R4, 0x00000000)
T9DF0 16640:651.978 - 0.005ms returns 0
T9DF0 16640:651.982 JLINK_WriteReg(R5, 0x00000000)
T9DF0 16640:651.986 - 0.005ms returns 0
T9DF0 16640:651.991 JLINK_WriteReg(R6, 0x00000000)
T9DF0 16640:651.995 - 0.006ms returns 0
T9DF0 16640:652.000 JLINK_WriteReg(R7, 0x00000000)
T9DF0 16640:652.004 - 0.006ms returns 0
T9DF0 16640:652.009 JLINK_WriteReg(R8, 0x00000000)
T9DF0 16640:652.012 - 0.005ms returns 0
T9DF0 16640:652.017 JLINK_WriteReg(R9, 0x20000160)
T9DF0 16640:652.021 - 0.005ms returns 0
T9DF0 16640:652.026 JLINK_WriteReg(R10, 0x00000000)
T9DF0 16640:652.030 - 0.006ms returns 0
T9DF0 16640:652.034 JLINK_WriteReg(R11, 0x00000000)
T9DF0 16640:652.038 - 0.006ms returns 0
T9DF0 16640:652.043 JLINK_WriteReg(R12, 0x00000000)
T9DF0 16640:652.047 - 0.005ms returns 0
T9DF0 16640:652.051 JLINK_WriteReg(R13 (SP), 0x20000800)
T9DF0 16640:652.056 - 0.006ms returns 0
T9DF0 16640:652.060 JLINK_WriteReg(R14, 0x20000001)
T9DF0 16640:652.065 - 0.006ms returns 0
T9DF0 16640:652.069 JLINK_WriteReg(R15 (PC), 0x2000007C)
T9DF0 16640:652.074 - 0.006ms returns 0
T9DF0 16640:652.078 JLINK_WriteReg(XPSR, 0x01000000)
T9DF0 16640:652.082 - 0.006ms returns 0
T9DF0 16640:652.087 JLINK_WriteReg(MSP, 0x20000800)
T9DF0 16640:652.091 - 0.005ms returns 0
T9DF0 16640:652.095 JLINK_WriteReg(PSP, 0x20000800)
T9DF0 16640:652.099 - 0.006ms returns 0
T9DF0 16640:652.104 JLINK_WriteReg(CFBP, 0x00000000)
T9DF0 16640:652.108 - 0.046ms returns 0
T9DF0 16640:652.155 JLINK_SetBPEx(Addr = 0x20000000, Type = 0xFFFFFFF2)
T9DF0 16640:652.160 - 0.006ms returns 0x00000002
T9DF0 16640:652.165 JLINK_Go()
T9DF0 16640:652.173   CPU_ReadMem(4 bytes @ 0xE0001000)
T9DF0 16640:653.343 - 1.185ms
T9DF0 16640:653.356 JLINK_IsHalted()
T9DF0 16640:653.570 - 0.217ms returns FALSE
T9DF0 16640:653.577 JLINK_HasError()
T9DF0 16640:675.135 JLINK_IsHalted()
T9DF0 16640:675.319 - 0.187ms returns FALSE
T9DF0 16640:675.328 JLINK_HasError()
T9DF0 16640:677.050 JLINK_IsHalted()
T9DF0 16640:678.124   CPU_ReadMem(2 bytes @ 0x20000000)
T9DF0 16640:678.322 - 1.275ms returns TRUE
T9DF0 16640:678.330 JLINK_ReadReg(R15 (PC))
T9DF0 16640:678.336 - 0.008ms returns 0x20000000
T9DF0 16640:678.341 JLINK_ClrBPEx(BPHandle = 0x00000002)
T9DF0 16640:678.346 - 0.006ms returns 0x00
T9DF0 16640:678.351 JLINK_ReadReg(R0)
T9DF0 16640:678.355 - 0.006ms returns 0x00000000
T9DF0 16640:730.620 JLINK_HasError()
T9DF0 16640:730.653 JLINK_WriteReg(R0, 0x00000001)
T9DF0 16640:730.666 - 0.016ms returns 0
T9DF0 16640:730.675 JLINK_WriteReg(R1, 0x00B71B00)
T9DF0 16640:730.682 - 0.010ms returns 0
T9DF0 16640:730.690 JLINK_WriteReg(R2, 0x00000001)
T9DF0 16640:730.697 - 0.010ms returns 0
T9DF0 16640:730.705 JLINK_WriteReg(R3, 0x00000000)
T9DF0 16640:730.712 - 0.010ms returns 0
T9DF0 16640:730.720 JLINK_WriteReg(R4, 0x00000000)
T9DF0 16640:730.727 - 0.010ms returns 0
T9DF0 16640:730.735 JLINK_WriteReg(R5, 0x00000000)
T9DF0 16640:730.741 - 0.010ms returns 0
T9DF0 16640:730.749 JLINK_WriteReg(R6, 0x00000000)
T9DF0 16640:730.756 - 0.010ms returns 0
T9DF0 16640:730.764 JLINK_WriteReg(R7, 0x00000000)
T9DF0 16640:730.771 - 0.010ms returns 0
T9DF0 16640:730.779 JLINK_WriteReg(R8, 0x00000000)
T9DF0 16640:730.786 - 0.010ms returns 0
T9DF0 16640:730.793 JLINK_WriteReg(R9, 0x20000160)
T9DF0 16640:730.800 - 0.009ms returns 0
T9DF0 16640:730.808 JLINK_WriteReg(R10, 0x00000000)
T9DF0 16640:730.815 - 0.010ms returns 0
T9DF0 16640:730.823 JLINK_WriteReg(R11, 0x00000000)
T9DF0 16640:730.829 - 0.010ms returns 0
T9DF0 16640:730.837 JLINK_WriteReg(R12, 0x00000000)
T9DF0 16640:730.844 - 0.010ms returns 0
T9DF0 16640:730.852 JLINK_WriteReg(R13 (SP), 0x20000800)
T9DF0 16640:730.860 - 0.011ms returns 0
T9DF0 16640:730.868 JLINK_WriteReg(R14, 0x20000001)
T9DF0 16640:730.875 - 0.010ms returns 0
T9DF0 16640:730.883 JLINK_WriteReg(R15 (PC), 0x2000006A)
T9DF0 16640:730.890 - 0.010ms returns 0
T9DF0 16640:730.898 JLINK_WriteReg(XPSR, 0x01000000)
T9DF0 16640:730.905 - 0.010ms returns 0
T9DF0 16640:730.913 JLINK_WriteReg(MSP, 0x20000800)
T9DF0 16640:730.920 - 0.010ms returns 0
T9DF0 16640:730.928 JLINK_WriteReg(PSP, 0x20000800)
T9DF0 16640:730.935 - 0.010ms returns 0
T9DF0 16640:730.943 JLINK_WriteReg(CFBP, 0x00000000)
T9DF0 16640:730.950 - 0.010ms returns 0
T9DF0 16640:730.959 JLINK_SetBPEx(Addr = 0x20000000, Type = 0xFFFFFFF2)
T9DF0 16640:730.968 - 0.012ms returns 0x00000003
T9DF0 16640:730.977 JLINK_Go()
T9DF0 16640:730.998   CPU_ReadMem(4 bytes @ 0xE0001000)
T9DF0 16640:732.228 - 1.258ms
T9DF0 16640:732.243 JLINK_IsHalted()
T9DF0 16640:733.437   CPU_ReadMem(2 bytes @ 0x20000000)
T9DF0 16640:733.944 - 1.735ms returns TRUE
T9DF0 16640:734.018 JLINK_ReadReg(R15 (PC))
T9DF0 16640:734.043 - 0.031ms returns 0x20000000
T9DF0 16640:734.060 JLINK_ClrBPEx(BPHandle = 0x00000003)
T9DF0 16640:734.074 - 0.020ms returns 0x00
T9DF0 16640:734.090 JLINK_ReadReg(R0)
T9DF0 16640:734.103 - 0.019ms returns 0x00000000
T9DF0 16640:743.259 JLINK_WriteMem(0x20000000, 0x164 Bytes, ...)
T9DF0 16640:743.272   Data:  00 BE 0A E0 0D 78 2D 06 68 40 08 24 40 00 00 D3 ...
T9DF0 16640:743.289   CPU_WriteMem(356 bytes @ 0x20000000)
T9DF0 16640:743.913 - 0.658ms returns 0x164
T9DF0 16640:743.935 JLINK_HasError()
T9DF0 16640:743.941 JLINK_WriteReg(R0, 0x08000000)
T9DF0 16640:743.947 - 0.008ms returns 0
T9DF0 16640:743.952 JLINK_WriteReg(R1, 0x00B71B00)
T9DF0 16640:743.956 - 0.006ms returns 0
T9DF0 16640:743.961 JLINK_WriteReg(R2, 0x00000002)
T9DF0 16640:743.965 - 0.006ms returns 0
T9DF0 16640:743.970 JLINK_WriteReg(R3, 0x00000000)
T9DF0 16640:744.015 - 0.047ms returns 0
T9DF0 16640:744.020 JLINK_WriteReg(R4, 0x00000000)
T9DF0 16640:744.024 - 0.005ms returns 0
T9DF0 16640:744.029 JLINK_WriteReg(R5, 0x00000000)
T9DF0 16640:744.033 - 0.005ms returns 0
T9DF0 16640:744.037 JLINK_WriteReg(R6, 0x00000000)
T9DF0 16640:744.041 - 0.005ms returns 0
T9DF0 16640:744.046 JLINK_WriteReg(R7, 0x00000000)
T9DF0 16640:744.050 - 0.005ms returns 0
T9DF0 16640:744.054 JLINK_WriteReg(R8, 0x00000000)
T9DF0 16640:744.058 - 0.005ms returns 0
T9DF0 16640:744.063 JLINK_WriteReg(R9, 0x20000160)
T9DF0 16640:744.067 - 0.005ms returns 0
T9DF0 16640:744.071 JLINK_WriteReg(R10, 0x00000000)
T9DF0 16640:744.075 - 0.005ms returns 0
T9DF0 16640:744.080 JLINK_WriteReg(R11, 0x00000000)
T9DF0 16640:744.084 - 0.005ms returns 0
T9DF0 16640:744.088 JLINK_WriteReg(R12, 0x00000000)
T9DF0 16640:744.092 - 0.005ms returns 0
T9DF0 16640:744.097 JLINK_WriteReg(R13 (SP), 0x20000800)
T9DF0 16640:744.101 - 0.006ms returns 0
T9DF0 16640:744.106 JLINK_WriteReg(R14, 0x20000001)
T9DF0 16640:744.110 - 0.005ms returns 0
T9DF0 16640:744.115 JLINK_WriteReg(R15 (PC), 0x20000038)
T9DF0 16640:744.119 - 0.006ms returns 0
T9DF0 16640:744.123 JLINK_WriteReg(XPSR, 0x01000000)
T9DF0 16640:744.127 - 0.006ms returns 0
T9DF0 16640:744.132 JLINK_WriteReg(MSP, 0x20000800)
T9DF0 16640:744.136 - 0.005ms returns 0
T9DF0 16640:744.140 JLINK_WriteReg(PSP, 0x20000800)
T9DF0 16640:744.144 - 0.005ms returns 0
T9DF0 16640:744.149 JLINK_WriteReg(CFBP, 0x00000000)
T9DF0 16640:744.153 - 0.005ms returns 0
T9DF0 16640:744.158 JLINK_SetBPEx(Addr = 0x20000000, Type = 0xFFFFFFF2)
T9DF0 16640:744.165   CPU_ReadMem(2 bytes @ 0x20000000)
T9DF0 16640:744.308 - 0.153ms returns 0x00000004
T9DF0 16640:744.315 JLINK_Go()
T9DF0 16640:744.320   CPU_WriteMem(2 bytes @ 0x20000000)
T9DF0 16640:744.557   CPU_ReadMem(4 bytes @ 0xE0001000)
T9DF0 16640:745.842 - 1.530ms
T9DF0 16640:745.849 JLINK_IsHalted()
T9DF0 16640:746.961   CPU_ReadMem(2 bytes @ 0x20000000)
T9DF0 16640:747.148 - 1.301ms returns TRUE
T9DF0 16640:747.154 JLINK_ReadReg(R15 (PC))
T9DF0 16640:747.158 - 0.006ms returns 0x20000000
T9DF0 16640:747.163 JLINK_ClrBPEx(BPHandle = 0x00000004)
T9DF0 16640:747.167 - 0.006ms returns 0x00
T9DF0 16640:747.172 JLINK_ReadReg(R0)
T9DF0 16640:747.176 - 0.005ms returns 0x00000000
T9DF0 16640:747.346 JLINK_WriteMem(0x20000164, 0x29C Bytes, ...)
T9DF0 16640:747.354   Data:  28 29 00 20 B9 02 00 08 4D 63 00 08 D9 3F 00 08 ...
T9DF0 16640:747.365   CPU_WriteMem(668 bytes @ 0x20000164)
T9DF0 16640:748.424 - 1.091ms returns 0x29C
T9DF0 16640:748.458 JLINK_WriteMem(0x20000400, 0x164 Bytes, ...)
T9DF0 16640:748.479   Data:  11 46 FF F7 E9 FF 0D F0 B1 F8 00 F0 59 FF 03 B4 ...
T9DF0 16640:748.501   CPU_WriteMem(356 bytes @ 0x20000400)
T9DF0 16640:749.106 - 0.652ms returns 0x164
T9DF0 16640:749.114 JLINK_HasError()
T9DF0 16640:749.119 JLINK_WriteReg(R0, 0x08000000)
T9DF0 16640:749.124 - 0.006ms returns 0
T9DF0 16640:749.129 JLINK_WriteReg(R1, 0x00000400)
T9DF0 16640:749.133 - 0.005ms returns 0
T9DF0 16640:749.137 JLINK_WriteReg(R2, 0x20000164)
T9DF0 16640:749.141 - 0.006ms returns 0
T9DF0 16640:749.146 JLINK_WriteReg(R3, 0x00000000)
T9DF0 16640:749.150 - 0.008ms returns 0
T9DF0 16640:749.164 JLINK_WriteReg(R4, 0x00000000)
T9DF0 16640:749.178 - 0.020ms returns 0
T9DF0 16640:749.194 JLINK_WriteReg(R5, 0x00000000)
T9DF0 16640:749.209 - 0.021ms returns 0
T9DF0 16640:749.225 JLINK_WriteReg(R6, 0x00000000)
T9DF0 16640:749.240 - 0.021ms returns 0
T9DF0 16640:749.256 JLINK_WriteReg(R7, 0x00000000)
T9DF0 16640:749.270 - 0.021ms returns 0
T9DF0 16640:749.287 JLINK_WriteReg(R8, 0x00000000)
T9DF0 16640:749.301 - 0.021ms returns 0
T9DF0 16640:749.318 JLINK_WriteReg(R9, 0x20000160)
T9DF0 16640:749.332 - 0.021ms returns 0
T9DF0 16640:749.349 JLINK_WriteReg(R10, 0x00000000)
T9DF0 16640:749.363 - 0.021ms returns 0
T9DF0 16640:749.380 JLINK_WriteReg(R11, 0x00000000)
T9DF0 16640:749.394 - 0.021ms returns 0
T9DF0 16640:749.411 JLINK_WriteReg(R12, 0x00000000)
T9DF0 16640:749.434 - 0.036ms returns 0
T9DF0 16640:749.457 JLINK_WriteReg(R13 (SP), 0x20000800)
T9DF0 16640:749.472 - 0.022ms returns 0
T9DF0 16640:749.489 JLINK_WriteReg(R14, 0x20000001)
T9DF0 16640:749.507 - 0.025ms returns 0
T9DF0 16640:749.524 JLINK_WriteReg(R15 (PC), 0x200000F4)
T9DF0 16640:749.539 - 0.021ms returns 0
T9DF0 16640:749.555 JLINK_WriteReg(XPSR, 0x01000000)
T9DF0 16640:749.570 - 0.021ms returns 0
T9DF0 16640:749.587 JLINK_WriteReg(MSP, 0x20000800)
T9DF0 16640:749.601 - 0.021ms returns 0
T9DF0 16640:749.618 JLINK_WriteReg(PSP, 0x20000800)
T9DF0 16640:749.632 - 0.021ms returns 0
T9DF0 16640:749.648 JLINK_WriteReg(CFBP, 0x00000000)
T9DF0 16640:749.663 - 0.021ms returns 0
T9DF0 16640:749.680 JLINK_SetBPEx(Addr = 0x20000000, Type = 0xFFFFFFF2)
T9DF0 16640:749.697 - 0.023ms returns 0x00000005
T9DF0 16640:749.714 JLINK_Go()
T9DF0 16640:749.740   CPU_ReadMem(4 bytes @ 0xE0001000)
T9DF0 16640:751.020 - 1.313ms
T9DF0 16640:751.034 JLINK_IsHalted()
T9DF0 16640:751.191 - 0.160ms returns FALSE
T9DF0 16640:751.199 JLINK_HasError()
T9DF0 16640:755.500 JLINK_IsHalted()
T9DF0 16640:755.714 - 0.220ms returns FALSE
T9DF0 16640:755.725 JLINK_HasError()
T9DF0 16640:757.491 JLINK_IsHalted()
T9DF0 16640:757.720 - 0.236ms returns FALSE
T9DF0 16640:757.728 JLINK_HasError()
T9DF0 16640:760.499 JLINK_IsHalted()
T9DF0 16640:760.691 - 0.200ms returns FALSE
T9DF0 16640:760.705 JLINK_HasError()
T9DF0 16640:762.517 JLINK_IsHalted()
T9DF0 16640:762.712 - 0.198ms returns FALSE
T9DF0 16640:762.719 JLINK_HasError()
T9DF0 16640:764.524 JLINK_IsHalted()
T9DF0 16640:764.805 - 0.309ms returns FALSE
T9DF0 16640:764.856 JLINK_HasError()
T9DF0 16640:772.891 JLINK_IsHalted()
T9DF0 16640:773.159 - 0.272ms returns FALSE
T9DF0 16640:773.169 JLINK_HasError()
T9DF0 16640:774.422 JLINK_IsHalted()
T9DF0 16640:774.636 - 0.216ms returns FALSE
T9DF0 16640:774.642 JLINK_HasError()
T9DF0 16640:777.423 JLINK_IsHalted()
T9DF0 16640:777.667 - 0.248ms returns FALSE
T9DF0 16640:777.679 JLINK_HasError()
T9DF0 16640:779.018 JLINK_IsHalted()
T9DF0 16640:779.223 - 0.208ms returns FALSE
T9DF0 16640:779.229 JLINK_HasError()
T9DF0 16640:781.025 JLINK_IsHalted()
T9DF0 16640:781.253 - 0.237ms returns FALSE
T9DF0 16640:781.277 JLINK_HasError()
T9DF0 16640:783.019 JLINK_IsHalted()
T9DF0 16640:784.100   CPU_ReadMem(2 bytes @ 0x20000000)
T9DF0 16640:784.301 - 1.284ms returns TRUE
T9DF0 16640:784.307 JLINK_ReadReg(R15 (PC))
T9DF0 16640:784.313 - 0.007ms returns 0x20000000
T9DF0 16640:784.318 JLINK_ClrBPEx(BPHandle = 0x00000005)
T9DF0 16640:784.323 - 0.006ms returns 0x00
T9DF0 16640:784.328 JLINK_ReadReg(R0)
T9DF0 16640:784.332 - 0.006ms returns 0x00000000
T9DF0 16640:784.819 JLINK_WriteMem(0x20000164, 0x29C Bytes, ...)
T9DF0 16640:784.828   Data:  20 00 00 00 F0 B4 0D 46 01 88 09 05 02 D5 21 4C ...
T9DF0 16640:784.841   CPU_WriteMem(668 bytes @ 0x20000164)
T9DF0 16640:785.888 - 1.082ms returns 0x29C
T9DF0 16640:785.920 JLINK_WriteMem(0x20000400, 0x164 Bytes, ...)
T9DF0 16640:785.941   Data:  00 F8 01 2B 70 47 4F F0 00 02 00 B5 13 46 94 46 ...
T9DF0 16640:785.960   CPU_WriteMem(356 bytes @ 0x20000400)
T9DF0 16640:786.628 - 0.721ms returns 0x164
T9DF0 16640:786.660 JLINK_HasError()
T9DF0 16640:786.685 JLINK_WriteReg(R0, 0x08000400)
T9DF0 16640:786.703 - 0.020ms returns 0
T9DF0 16640:786.708 JLINK_WriteReg(R1, 0x00000400)
T9DF0 16640:786.712 - 0.005ms returns 0
T9DF0 16640:786.716 JLINK_WriteReg(R2, 0x20000164)
T9DF0 16640:786.720 - 0.005ms returns 0
T9DF0 16640:786.725 JLINK_WriteReg(R3, 0x00000000)
T9DF0 16640:786.729 - 0.005ms returns 0
T9DF0 16640:786.733 JLINK_WriteReg(R4, 0x00000000)
T9DF0 16640:786.737 - 0.005ms returns 0
T9DF0 16640:786.742 JLINK_WriteReg(R5, 0x00000000)
T9DF0 16640:786.746 - 0.005ms returns 0
T9DF0 16640:786.750 JLINK_WriteReg(R6, 0x00000000)
T9DF0 16640:786.754 - 0.005ms returns 0
T9DF0 16640:786.759 JLINK_WriteReg(R7, 0x00000000)
T9DF0 16640:786.763 - 0.005ms returns 0
T9DF0 16640:786.767 JLINK_WriteReg(R8, 0x00000000)
T9DF0 16640:786.771 - 0.006ms returns 0
T9DF0 16640:786.776 JLINK_WriteReg(R9, 0x20000160)
T9DF0 16640:786.785 - 0.011ms returns 0
T9DF0 16640:786.790 JLINK_WriteReg(R10, 0x00000000)
T9DF0 16640:786.793 - 0.005ms returns 0
T9DF0 16640:786.798 JLINK_WriteReg(R11, 0x00000000)
T9DF0 16640:786.802 - 0.005ms returns 0
T9DF0 16640:786.807 JLINK_WriteReg(R12, 0x00000000)
T9DF0 16640:786.811 - 0.005ms returns 0
T9DF0 16640:786.815 JLINK_WriteReg(R13 (SP), 0x20000800)
T9DF0 16640:786.820 - 0.006ms returns 0
T9DF0 16640:786.824 JLINK_WriteReg(R14, 0x20000001)
T9DF0 16640:786.828 - 0.005ms returns 0
T9DF0 16640:786.832 JLINK_WriteReg(R15 (PC), 0x200000F4)
T9DF0 16640:786.837 - 0.006ms returns 0
T9DF0 16640:786.841 JLINK_WriteReg(XPSR, 0x01000000)
T9DF0 16640:786.845 - 0.005ms returns 0
T9DF0 16640:786.850 JLINK_WriteReg(MSP, 0x20000800)
T9DF0 16640:786.854 - 0.005ms returns 0
T9DF0 16640:786.858 JLINK_WriteReg(PSP, 0x20000800)
T9DF0 16640:786.862 - 0.005ms returns 0
T9DF0 16640:786.867 JLINK_WriteReg(CFBP, 0x00000000)
T9DF0 16640:786.871 - 0.005ms returns 0
T9DF0 16640:786.876 JLINK_SetBPEx(Addr = 0x20000000, Type = 0xFFFFFFF2)
T9DF0 16640:786.881 - 0.006ms returns 0x00000006
T9DF0 16640:786.885 JLINK_Go()
T9DF0 16640:786.893   CPU_ReadMem(4 bytes @ 0xE0001000)
T9DF0 16640:788.121 - 1.238ms
T9DF0 16640:788.128 JLINK_IsHalted()
T9DF0 16640:788.277 - 0.152ms returns FALSE
T9DF0 16640:788.284 JLINK_HasError()
T9DF0 16640:791.119 JLINK_IsHalted()
T9DF0 16640:791.347 - 0.231ms returns FALSE
T9DF0 16640:791.354 JLINK_HasError()
T9DF0 16640:794.108 JLINK_IsHalted()
T9DF0 16640:794.318 - 0.212ms returns FALSE
T9DF0 16640:794.325 JLINK_HasError()
T9DF0 16640:796.131 JLINK_IsHalted()
T9DF0 16640:796.376 - 0.249ms returns FALSE
T9DF0 16640:796.383 JLINK_HasError()
T9DF0 16640:797.642 JLINK_IsHalted()
T9DF0 16640:797.972 - 0.354ms returns FALSE
T9DF0 16640:798.017 JLINK_HasError()
T9DF0 16640:799.607 JLINK_IsHalted()
T9DF0 16640:799.778 - 0.174ms returns FALSE
T9DF0 16640:799.785 JLINK_HasError()
T9DF0 16640:802.631 JLINK_IsHalted()
T9DF0 16640:802.847 - 0.219ms returns FALSE
T9DF0 16640:802.853 JLINK_HasError()
T9DF0 16640:804.625 JLINK_IsHalted()
T9DF0 16640:804.844 - 0.221ms returns FALSE
T9DF0 16640:804.850 JLINK_HasError()
T9DF0 16640:806.630 JLINK_IsHalted()
T9DF0 16640:806.845 - 0.218ms returns FALSE
T9DF0 16640:806.852 JLINK_HasError()
T9DF0 16640:809.422 JLINK_IsHalted()
T9DF0 16640:809.601 - 0.187ms returns FALSE
T9DF0 16640:809.616 JLINK_HasError()
T9DF0 16640:811.443 JLINK_IsHalted()
T9DF0 16640:811.691 - 0.253ms returns FALSE
T9DF0 16640:811.701 JLINK_HasError()
T9DF0 16640:816.874 JLINK_IsHalted()
T9DF0 16640:817.125 - 0.254ms returns FALSE
T9DF0 16640:817.132 JLINK_HasError()
T9DF0 16640:819.098 JLINK_IsHalted()
T9DF0 16640:820.231   CPU_ReadMem(2 bytes @ 0x20000000)
T9DF0 16640:820.402 - 1.306ms returns TRUE
T9DF0 16640:820.408 JLINK_ReadReg(R15 (PC))
T9DF0 16640:820.414 - 0.007ms returns 0x20000000
T9DF0 16640:820.419 JLINK_ClrBPEx(BPHandle = 0x00000006)
T9DF0 16640:820.423 - 0.006ms returns 0x00
T9DF0 16640:820.428 JLINK_ReadReg(R0)
T9DF0 16640:820.432 - 0.006ms returns 0x00000000
T9DF0 16640:820.874 JLINK_WriteMem(0x20000164, 0x29C Bytes, ...)
T9DF0 16640:820.883   Data:  A5 F1 01 05 F3 DC 20 46 FF F7 8C FF 20 78 00 06 ...
T9DF0 16640:820.894   CPU_WriteMem(668 bytes @ 0x20000164)
T9DF0 16640:821.923 - 1.061ms returns 0x29C
T9DF0 16640:821.939 JLINK_WriteMem(0x20000400, 0x164 Bytes, ...)
T9DF0 16640:821.943   Data:  0E 00 41 EB 11 11 4F EA 10 2E 4E EA 01 6E 10 EB ...
T9DF0 16640:821.950   CPU_WriteMem(356 bytes @ 0x20000400)
T9DF0 16640:822.589 - 0.662ms returns 0x164
T9DF0 16640:822.620 JLINK_HasError()
T9DF0 16640:822.646 JLINK_WriteReg(R0, 0x08000800)
T9DF0 16640:822.661 - 0.017ms returns 0
T9DF0 16640:822.666 JLINK_WriteReg(R1, 0x00000400)
T9DF0 16640:822.670 - 0.005ms returns 0
T9DF0 16640:822.674 JLINK_WriteReg(R2, 0x20000164)
T9DF0 16640:822.678 - 0.005ms returns 0
T9DF0 16640:822.683 JLINK_WriteReg(R3, 0x00000000)
T9DF0 16640:822.687 - 0.005ms returns 0
T9DF0 16640:822.691 JLINK_WriteReg(R4, 0x00000000)
T9DF0 16640:822.701 - 0.011ms returns 0
T9DF0 16640:822.706 JLINK_WriteReg(R5, 0x00000000)
T9DF0 16640:822.710 - 0.005ms returns 0
T9DF0 16640:822.714 JLINK_WriteReg(R6, 0x00000000)
T9DF0 16640:822.718 - 0.005ms returns 0
T9DF0 16640:822.723 JLINK_WriteReg(R7, 0x00000000)
T9DF0 16640:822.727 - 0.005ms returns 0
T9DF0 16640:822.731 JLINK_WriteReg(R8, 0x00000000)
T9DF0 16640:822.735 - 0.005ms returns 0
T9DF0 16640:822.740 JLINK_WriteReg(R9, 0x20000160)
T9DF0 16640:822.744 - 0.005ms returns 0
T9DF0 16640:822.748 JLINK_WriteReg(R10, 0x00000000)
T9DF0 16640:822.752 - 0.005ms returns 0
T9DF0 16640:822.757 JLINK_WriteReg(R11, 0x00000000)
T9DF0 16640:822.761 - 0.005ms returns 0
T9DF0 16640:822.765 JLINK_WriteReg(R12, 0x00000000)
T9DF0 16640:822.769 - 0.005ms returns 0
T9DF0 16640:822.774 JLINK_WriteReg(R13 (SP), 0x20000800)
T9DF0 16640:822.778 - 0.006ms returns 0
T9DF0 16640:822.783 JLINK_WriteReg(R14, 0x20000001)
T9DF0 16640:822.787 - 0.005ms returns 0
T9DF0 16640:822.791 JLINK_WriteReg(R15 (PC), 0x200000F4)
T9DF0 16640:822.795 - 0.005ms returns 0
T9DF0 16640:822.800 JLINK_WriteReg(XPSR, 0x01000000)
T9DF0 16640:822.804 - 0.005ms returns 0
T9DF0 16640:822.809 JLINK_WriteReg(MSP, 0x20000800)
T9DF0 16640:822.813 - 0.005ms returns 0
T9DF0 16640:822.817 JLINK_WriteReg(PSP, 0x20000800)
T9DF0 16640:822.821 - 0.005ms returns 0
T9DF0 16640:822.826 JLINK_WriteReg(CFBP, 0x00000000)
T9DF0 16640:822.830 - 0.005ms returns 0
T9DF0 16640:822.834 JLINK_SetBPEx(Addr = 0x20000000, Type = 0xFFFFFFF2)
T9DF0 16640:822.839 - 0.006ms returns 0x00000007
T9DF0 16640:822.844 JLINK_Go()
T9DF0 16640:822.852   CPU_ReadMem(4 bytes @ 0xE0001000)
T9DF0 16640:823.969 - 1.127ms
T9DF0 16640:823.975 JLINK_IsHalted()
T9DF0 16640:824.175 - 0.201ms returns FALSE
T9DF0 16640:824.181 JLINK_HasError()
T9DF0 16640:827.246 JLINK_IsHalted()
T9DF0 16640:827.433 - 0.192ms returns FALSE
T9DF0 16640:827.443 JLINK_HasError()
T9DF0 16640:829.242 JLINK_IsHalted()
T9DF0 16640:829.469 - 0.229ms returns FALSE
T9DF0 16640:829.476 JLINK_HasError()
T9DF0 16640:831.246 JLINK_IsHalted()
T9DF0 16640:831.466 - 0.222ms returns FALSE
T9DF0 16640:831.472 JLINK_HasError()
T9DF0 16640:833.774 JLINK_IsHalted()
T9DF0 16640:833.999 - 0.228ms returns FALSE
T9DF0 16640:834.006 JLINK_HasError()
T9DF0 16640:835.780 JLINK_IsHalted()
T9DF0 16640:836.048 - 0.272ms returns FALSE
T9DF0 16640:836.055 JLINK_HasError()
T9DF0 16640:837.744 JLINK_IsHalted()
T9DF0 16640:837.902 - 0.161ms returns FALSE
T9DF0 16640:837.909 JLINK_HasError()
T9DF0 16640:840.767 JLINK_IsHalted()
T9DF0 16640:840.972 - 0.207ms returns FALSE
T9DF0 16640:840.979 JLINK_HasError()
T9DF0 16640:842.765 JLINK_IsHalted()
T9DF0 16640:842.977 - 0.221ms returns FALSE
T9DF0 16640:842.995 JLINK_HasError()
T9DF0 16640:844.766 JLINK_IsHalted()
T9DF0 16640:845.003 - 0.245ms returns FALSE
T9DF0 16640:845.017 JLINK_HasError()
T9DF0 16640:846.746 JLINK_IsHalted()
T9DF0 16640:846.933 - 0.190ms returns FALSE
T9DF0 16640:846.941 JLINK_HasError()
T9DF0 16640:849.770 JLINK_IsHalted()
T9DF0 16640:849.998 - 0.231ms returns FALSE
T9DF0 16640:850.005 JLINK_HasError()
T9DF0 16640:851.761 JLINK_IsHalted()
T9DF0 16640:851.970 - 0.211ms returns FALSE
T9DF0 16640:851.976 JLINK_HasError()
T9DF0 16640:853.755 JLINK_IsHalted()
T9DF0 16640:853.938 - 0.185ms returns FALSE
T9DF0 16640:853.945 JLINK_HasError()
T9DF0 16640:859.410 JLINK_IsHalted()
T9DF0 16640:860.918   CPU_ReadMem(2 bytes @ 0x20000000)
T9DF0 16640:861.295 - 1.918ms returns TRUE
T9DF0 16640:861.355 JLINK_ReadReg(R15 (PC))
T9DF0 16640:861.395 - 0.052ms returns 0x20000000
T9DF0 16640:861.427 JLINK_ClrBPEx(BPHandle = 0x00000007)
T9DF0 16640:861.451 - 0.033ms returns 0x00
T9DF0 16640:861.475 JLINK_ReadReg(R0)
T9DF0 16640:861.495 - 0.030ms returns 0x00000000
T9DF0 16640:862.382 JLINK_WriteMem(0x20000164, 0x29C Bytes, ...)
T9DF0 16640:862.394   Data:  03 A9 03 90 68 46 00 F0 88 FD 8D E8 07 00 00 04 ...
T9DF0 16640:862.408   CPU_WriteMem(668 bytes @ 0x20000164)
T9DF0 16640:863.405 - 1.030ms returns 0x29C
T9DF0 16640:863.421 JLINK_WriteMem(0x20000400, 0x164 Bytes, ...)
T9DF0 16640:863.428   Data:  01 21 90 47 20 6A 40 1C 20 62 20 78 C0 06 22 D5 ...
T9DF0 16640:863.440   CPU_WriteMem(356 bytes @ 0x20000400)
T9DF0 16640:864.136 - 0.728ms returns 0x164
T9DF0 16640:864.155 JLINK_HasError()
T9DF0 16640:864.161 JLINK_WriteReg(R0, 0x08000C00)
T9DF0 16640:864.166 - 0.007ms returns 0
T9DF0 16640:864.172 JLINK_WriteReg(R1, 0x00000400)
T9DF0 16640:864.176 - 0.006ms returns 0
T9DF0 16640:864.181 JLINK_WriteReg(R2, 0x20000164)
T9DF0 16640:864.185 - 0.006ms returns 0
T9DF0 16640:864.191 JLINK_WriteReg(R3, 0x00000000)
T9DF0 16640:864.195 - 0.006ms returns 0
T9DF0 16640:864.200 JLINK_WriteReg(R4, 0x00000000)
T9DF0 16640:864.204 - 0.006ms returns 0
T9DF0 16640:864.209 JLINK_WriteReg(R5, 0x00000000)
T9DF0 16640:864.214 - 0.006ms returns 0
T9DF0 16640:864.219 JLINK_WriteReg(R6, 0x00000000)
T9DF0 16640:864.223 - 0.006ms returns 0
T9DF0 16640:864.228 JLINK_WriteReg(R7, 0x00000000)
T9DF0 16640:864.232 - 0.006ms returns 0
T9DF0 16640:864.237 JLINK_WriteReg(R8, 0x00000000)
T9DF0 16640:864.242 - 0.006ms returns 0
T9DF0 16640:864.247 JLINK_WriteReg(R9, 0x20000160)
T9DF0 16640:864.251 - 0.006ms returns 0
T9DF0 16640:864.256 JLINK_WriteReg(R10, 0x00000000)
T9DF0 16640:864.261 - 0.006ms returns 0
T9DF0 16640:864.266 JLINK_WriteReg(R11, 0x00000000)
T9DF0 16640:864.270 - 0.006ms returns 0
T9DF0 16640:864.275 JLINK_WriteReg(R12, 0x00000000)
T9DF0 16640:864.279 - 0.006ms returns 0
T9DF0 16640:864.284 JLINK_WriteReg(R13 (SP), 0x20000800)
T9DF0 16640:864.289 - 0.007ms returns 0
T9DF0 16640:864.294 JLINK_WriteReg(R14, 0x20000001)
T9DF0 16640:864.299 - 0.006ms returns 0
T9DF0 16640:864.304 JLINK_WriteReg(R15 (PC), 0x200000F4)
T9DF0 16640:864.308 - 0.006ms returns 0
T9DF0 16640:864.313 JLINK_WriteReg(XPSR, 0x01000000)
T9DF0 16640:864.318 - 0.006ms returns 0
T9DF0 16640:864.323 JLINK_WriteReg(MSP, 0x20000800)
T9DF0 16640:864.327 - 0.006ms returns 0
T9DF0 16640:864.332 JLINK_WriteReg(PSP, 0x20000800)
T9DF0 16640:864.336 - 0.006ms returns 0
T9DF0 16640:864.341 JLINK_WriteReg(CFBP, 0x00000000)
T9DF0 16640:864.346 - 0.006ms returns 0
T9DF0 16640:864.351 JLINK_SetBPEx(Addr = 0x20000000, Type = 0xFFFFFFF2)
T9DF0 16640:864.356 - 0.007ms returns 0x00000008
T9DF0 16640:864.363 JLINK_Go()
T9DF0 16640:864.372   CPU_ReadMem(4 bytes @ 0xE0001000)
T9DF0 16640:865.472 - 1.111ms
T9DF0 16640:865.479 JLINK_IsHalted()
T9DF0 16640:865.657 - 0.180ms returns FALSE
T9DF0 16640:865.664 JLINK_HasError()
T9DF0 16640:868.421 JLINK_IsHalted()
T9DF0 16640:868.631 - 0.216ms returns FALSE
T9DF0 16640:868.642 JLINK_HasError()
T9DF0 16640:870.406 JLINK_IsHalted()
T9DF0 16640:870.627 - 0.224ms returns FALSE
T9DF0 16640:870.634 JLINK_HasError()
T9DF0 16640:874.392 JLINK_IsHalted()
T9DF0 16640:874.600 - 0.211ms returns FALSE
T9DF0 16640:874.608 JLINK_HasError()
T9DF0 16640:876.384 JLINK_IsHalted()
T9DF0 16640:876.563 - 0.182ms returns FALSE
T9DF0 16640:876.573 JLINK_HasError()
T9DF0 16640:877.932 JLINK_IsHalted()
T9DF0 16640:878.189 - 0.262ms returns FALSE
T9DF0 16640:878.200 JLINK_HasError()
T9DF0 16640:881.459 JLINK_IsHalted()
T9DF0 16640:881.694 - 0.239ms returns FALSE
T9DF0 16640:881.704 JLINK_HasError()
T9DF0 16640:883.447 JLINK_IsHalted()
T9DF0 16640:883.628 - 0.185ms returns FALSE
T9DF0 16640:883.639 JLINK_HasError()
T9DF0 16640:885.450 JLINK_IsHalted()
T9DF0 16640:885.655 - 0.210ms returns FALSE
T9DF0 16640:885.666 JLINK_HasError()
T9DF0 16640:887.448 JLINK_IsHalted()
T9DF0 16640:887.604 - 0.162ms returns FALSE
T9DF0 16640:887.617 JLINK_HasError()
T9DF0 16640:892.487 JLINK_IsHalted()
T9DF0 16640:892.713 - 0.231ms returns FALSE
T9DF0 16640:892.726 JLINK_HasError()
T9DF0 16640:894.464 JLINK_IsHalted()
T9DF0 16640:894.684 - 0.224ms returns FALSE
T9DF0 16640:894.698 JLINK_HasError()
T9DF0 16640:897.465 JLINK_IsHalted()
T9DF0 16640:898.597   CPU_ReadMem(2 bytes @ 0x20000000)
T9DF0 16640:898.805 - 1.344ms returns TRUE
T9DF0 16640:898.815 JLINK_ReadReg(R15 (PC))
T9DF0 16640:898.823 - 0.010ms returns 0x20000000
T9DF0 16640:898.834 JLINK_ClrBPEx(BPHandle = 0x00000008)
T9DF0 16640:898.844 - 0.012ms returns 0x00
T9DF0 16640:898.851 JLINK_ReadReg(R0)
T9DF0 16640:898.857 - 0.009ms returns 0x00000000
T9DF0 16640:899.470 JLINK_WriteMem(0x20000164, 0x29C Bytes, ...)
T9DF0 16640:899.482   Data:  03 26 01 68 07 2A 01 F4 00 60 04 DB 08 B1 16 A5 ...
T9DF0 16640:899.500   CPU_WriteMem(668 bytes @ 0x20000164)
T9DF0 16640:900.541 - 1.083ms returns 0x29C
T9DF0 16640:900.560 JLINK_WriteMem(0x20000400, 0x164 Bytes, ...)
T9DF0 16640:900.566   Data:  04 BF 09 02 0C F1 08 0C 0B 0F 04 BF 09 01 0C F1 ...
T9DF0 16640:900.576   CPU_WriteMem(356 bytes @ 0x20000400)
T9DF0 16640:901.181 - 0.633ms returns 0x164
T9DF0 16640:901.204 JLINK_HasError()
T9DF0 16640:901.211 JLINK_WriteReg(R0, 0x08001000)
T9DF0 16640:901.218 - 0.009ms returns 0
T9DF0 16640:901.224 JLINK_WriteReg(R1, 0x00000400)
T9DF0 16640:901.230 - 0.008ms returns 0
T9DF0 16640:901.236 JLINK_WriteReg(R2, 0x20000164)
T9DF0 16640:901.242 - 0.008ms returns 0
T9DF0 16640:901.248 JLINK_WriteReg(R3, 0x00000000)
T9DF0 16640:901.253 - 0.008ms returns 0
T9DF0 16640:901.260 JLINK_WriteReg(R4, 0x00000000)
T9DF0 16640:901.265 - 0.008ms returns 0
T9DF0 16640:901.271 JLINK_WriteReg(R5, 0x00000000)
T9DF0 16640:901.276 - 0.007ms returns 0
T9DF0 16640:901.283 JLINK_WriteReg(R6, 0x00000000)
T9DF0 16640:901.288 - 0.007ms returns 0
T9DF0 16640:901.294 JLINK_WriteReg(R7, 0x00000000)
T9DF0 16640:901.300 - 0.008ms returns 0
T9DF0 16640:901.306 JLINK_WriteReg(R8, 0x00000000)
T9DF0 16640:901.311 - 0.008ms returns 0
T9DF0 16640:901.318 JLINK_WriteReg(R9, 0x20000160)
T9DF0 16640:901.323 - 0.008ms returns 0
T9DF0 16640:901.329 JLINK_WriteReg(R10, 0x00000000)
T9DF0 16640:901.335 - 0.008ms returns 0
T9DF0 16640:901.342 JLINK_WriteReg(R11, 0x00000000)
T9DF0 16640:901.347 - 0.008ms returns 0
T9DF0 16640:901.354 JLINK_WriteReg(R12, 0x00000000)
T9DF0 16640:901.361 - 0.009ms returns 0
T9DF0 16640:901.367 JLINK_WriteReg(R13 (SP), 0x20000800)
T9DF0 16640:901.374 - 0.009ms returns 0
T9DF0 16640:901.380 JLINK_WriteReg(R14, 0x20000001)
T9DF0 16640:901.386 - 0.008ms returns 0
T9DF0 16640:901.393 JLINK_WriteReg(R15 (PC), 0x200000F4)
T9DF0 16640:901.399 - 0.009ms returns 0
T9DF0 16640:901.407 JLINK_WriteReg(XPSR, 0x01000000)
T9DF0 16640:901.413 - 0.008ms returns 0
T9DF0 16640:901.419 JLINK_WriteReg(MSP, 0x20000800)
T9DF0 16640:901.425 - 0.008ms returns 0
T9DF0 16640:901.431 JLINK_WriteReg(PSP, 0x20000800)
T9DF0 16640:901.437 - 0.009ms returns 0
T9DF0 16640:901.445 JLINK_WriteReg(CFBP, 0x00000000)
T9DF0 16640:901.450 - 0.008ms returns 0
T9DF0 16640:901.457 JLINK_SetBPEx(Addr = 0x20000000, Type = 0xFFFFFFF2)
T9DF0 16640:901.464 - 0.010ms returns 0x00000009
T9DF0 16640:901.471 JLINK_Go()
T9DF0 16640:901.482   CPU_ReadMem(4 bytes @ 0xE0001000)
T9DF0 16640:902.624 - 1.157ms
T9DF0 16640:902.634 JLINK_IsHalted()
T9DF0 16640:902.799 - 0.168ms returns FALSE
T9DF0 16640:902.807 JLINK_HasError()
T9DF0 16640:908.931 JLINK_IsHalted()
T9DF0 16640:909.153 - 0.225ms returns FALSE
T9DF0 16640:909.160 JLINK_HasError()
T9DF0 16640:911.141 JLINK_IsHalted()
T9DF0 16640:911.382 - 0.244ms returns FALSE
T9DF0 16640:911.389 JLINK_HasError()
T9DF0 16640:914.153 JLINK_IsHalted()
T9DF0 16640:914.377 - 0.230ms returns FALSE
T9DF0 16640:914.389 JLINK_HasError()
T9DF0 16640:916.140 JLINK_IsHalted()
T9DF0 16640:916.349 - 0.212ms returns FALSE
T9DF0 16640:916.357 JLINK_HasError()
T9DF0 16640:918.121 JLINK_IsHalted()
T9DF0 16640:918.307 - 0.189ms returns FALSE
T9DF0 16640:918.316 JLINK_HasError()
T9DF0 16640:921.284 JLINK_IsHalted()
T9DF0 16640:921.506 - 0.226ms returns FALSE
T9DF0 16640:921.515 JLINK_HasError()
T9DF0 16640:923.284 JLINK_IsHalted()
T9DF0 16640:923.503 - 0.222ms returns FALSE
T9DF0 16640:923.510 JLINK_HasError()
T9DF0 16640:925.285 JLINK_IsHalted()
T9DF0 16640:925.505 - 0.222ms returns FALSE
T9DF0 16640:925.512 JLINK_HasError()
T9DF0 16640:927.268 JLINK_IsHalted()
T9DF0 16640:927.470 - 0.205ms returns FALSE
T9DF0 16640:927.478 JLINK_HasError()
T9DF0 16640:930.416 JLINK_IsHalted()
T9DF0 16640:930.627 - 0.215ms returns FALSE
T9DF0 16640:930.636 JLINK_HasError()
T9DF0 16640:932.409 JLINK_IsHalted()
T9DF0 16640:932.599 - 0.194ms returns FALSE
T9DF0 16640:932.608 JLINK_HasError()
T9DF0 16640:934.423 JLINK_IsHalted()
T9DF0 16640:935.585   CPU_ReadMem(2 bytes @ 0x20000000)
T9DF0 16640:935.787 - 1.369ms returns TRUE
T9DF0 16640:935.799 JLINK_ReadReg(R15 (PC))
T9DF0 16640:935.809 - 0.013ms returns 0x20000000
T9DF0 16640:935.818 JLINK_ClrBPEx(BPHandle = 0x00000009)
T9DF0 16640:935.826 - 0.011ms returns 0x00
T9DF0 16640:935.835 JLINK_ReadReg(R0)
T9DF0 16640:935.842 - 0.010ms returns 0x00000000
T9DF0 16640:936.943 JLINK_WriteMem(0x20000164, 0x29C Bytes, ...)
T9DF0 16640:936.957   Data:  4F EA 80 60 4F EA 1C 4C 0C FB 0B F7 D2 1B 03 FB ...
T9DF0 16640:936.976   CPU_WriteMem(668 bytes @ 0x20000164)
T9DF0 16640:937.967 - 1.037ms returns 0x29C
T9DF0 16640:937.989 JLINK_WriteMem(0x20000400, 0x164 Bytes, ...)
T9DF0 16640:937.997   Data:  C3 F1 20 07 46 EA 06 46 02 FA 07 F7 4F EA 16 46 ...
T9DF0 16640:938.014   CPU_WriteMem(356 bytes @ 0x20000400)
T9DF0 16640:938.655 - 0.689ms returns 0x164
T9DF0 16640:938.699 JLINK_HasError()
T9DF0 16640:938.723 JLINK_WriteReg(R0, 0x08001400)
T9DF0 16640:938.746 - 0.030ms returns 0
T9DF0 16640:938.766 JLINK_WriteReg(R1, 0x00000400)
T9DF0 16640:938.782 - 0.024ms returns 0
T9DF0 16640:938.801 JLINK_WriteReg(R2, 0x20000164)
T9DF0 16640:938.816 - 0.023ms returns 0
T9DF0 16640:938.835 JLINK_WriteReg(R3, 0x00000000)
T9DF0 16640:938.850 - 0.023ms returns 0
T9DF0 16640:938.869 JLINK_WriteReg(R4, 0x00000000)
T9DF0 16640:938.884 - 0.023ms returns 0
T9DF0 16640:938.902 JLINK_WriteReg(R5, 0x00000000)
T9DF0 16640:938.918 - 0.023ms returns 0
T9DF0 16640:938.936 JLINK_WriteReg(R6, 0x00000000)
T9DF0 16640:938.951 - 0.022ms returns 0
T9DF0 16640:938.969 JLINK_WriteReg(R7, 0x00000000)
T9DF0 16640:938.986 - 0.024ms returns 0
T9DF0 16640:939.004 JLINK_WriteReg(R8, 0x00000000)
T9DF0 16640:939.020 - 0.024ms returns 0
T9DF0 16640:939.039 JLINK_WriteReg(R9, 0x20000160)
T9DF0 16640:939.054 - 0.023ms returns 0
T9DF0 16640:939.073 JLINK_WriteReg(R10, 0x00000000)
T9DF0 16640:939.089 - 0.023ms returns 0
T9DF0 16640:939.107 JLINK_WriteReg(R11, 0x00000000)
T9DF0 16640:939.123 - 0.023ms returns 0
T9DF0 16640:939.141 JLINK_WriteReg(R12, 0x00000000)
T9DF0 16640:939.156 - 0.022ms returns 0
T9DF0 16640:939.174 JLINK_WriteReg(R13 (SP), 0x20000800)
T9DF0 16640:939.192 - 0.025ms returns 0
T9DF0 16640:939.210 JLINK_WriteReg(R14, 0x20000001)
T9DF0 16640:939.229 - 0.026ms returns 0
T9DF0 16640:939.247 JLINK_WriteReg(R15 (PC), 0x200000F4)
T9DF0 16640:939.264 - 0.024ms returns 0
T9DF0 16640:939.282 JLINK_WriteReg(XPSR, 0x01000000)
T9DF0 16640:939.298 - 0.023ms returns 0
T9DF0 16640:939.312 JLINK_WriteReg(MSP, 0x20000800)
T9DF0 16640:939.318 - 0.009ms returns 0
T9DF0 16640:939.326 JLINK_WriteReg(PSP, 0x20000800)
T9DF0 16640:939.332 - 0.009ms returns 0
T9DF0 16640:939.340 JLINK_WriteReg(CFBP, 0x00000000)
T9DF0 16640:939.346 - 0.009ms returns 0
T9DF0 16640:939.354 JLINK_SetBPEx(Addr = 0x20000000, Type = 0xFFFFFFF2)
T9DF0 16640:939.362 - 0.011ms returns 0x0000000A
T9DF0 16640:939.371 JLINK_Go()
T9DF0 16640:939.386   CPU_ReadMem(4 bytes @ 0xE0001000)
T9DF0 16640:940.598 - 1.236ms
T9DF0 16640:940.614 JLINK_IsHalted()
T9DF0 16640:940.806 - 0.195ms returns FALSE
T9DF0 16640:940.815 JLINK_HasError()
T9DF0 16640:944.242 JLINK_IsHalted()
T9DF0 16640:944.473 - 0.234ms returns FALSE
T9DF0 16640:944.480 JLINK_HasError()
T9DF0 16640:946.235 JLINK_IsHalted()
T9DF0 16640:946.434 - 0.202ms returns FALSE
T9DF0 16640:946.441 JLINK_HasError()
T9DF0 16640:948.239 JLINK_IsHalted()
T9DF0 16640:948.447 - 0.211ms returns FALSE
T9DF0 16640:948.455 JLINK_HasError()
T9DF0 16640:950.244 JLINK_IsHalted()
T9DF0 16640:950.477 - 0.237ms returns FALSE
T9DF0 16640:950.488 JLINK_HasError()
T9DF0 16640:957.247 JLINK_IsHalted()
T9DF0 16640:957.511 - 0.268ms returns FALSE
T9DF0 16640:957.519 JLINK_HasError()
T9DF0 16640:959.238 JLINK_IsHalted()
T9DF0 16640:959.452 - 0.221ms returns FALSE
T9DF0 16640:959.465 JLINK_HasError()
T9DF0 16640:962.263 JLINK_IsHalted()
T9DF0 16640:962.507 - 0.252ms returns FALSE
T9DF0 16640:962.521 JLINK_HasError()
T9DF0 16640:964.236 JLINK_IsHalted()
T9DF0 16640:964.432 - 0.200ms returns FALSE
T9DF0 16640:964.442 JLINK_HasError()
T9DF0 16640:966.238 JLINK_IsHalted()
T9DF0 16640:966.435 - 0.201ms returns FALSE
T9DF0 16640:966.445 JLINK_HasError()
T9DF0 16640:970.502 JLINK_IsHalted()
T9DF0 16640:970.728 - 0.230ms returns FALSE
T9DF0 16640:970.741 JLINK_HasError()
T9DF0 16640:972.492 JLINK_IsHalted()
T9DF0 16640:973.575   CPU_ReadMem(2 bytes @ 0x20000000)
T9DF0 16640:973.761 - 1.274ms returns TRUE
T9DF0 16640:973.773 JLINK_ReadReg(R15 (PC))
T9DF0 16640:973.784 - 0.013ms returns 0x20000000
T9DF0 16640:973.793 JLINK_ClrBPEx(BPHandle = 0x0000000A)
T9DF0 16640:973.801 - 0.011ms returns 0x00
T9DF0 16640:973.811 JLINK_ReadReg(R0)
T9DF0 16640:973.819 - 0.011ms returns 0x00000000
T9DF0 16640:974.597 JLINK_WriteMem(0x20000164, 0x29C Bytes, ...)
T9DF0 16640:974.611   Data:  3C BF C9 43 F6 1B 4F EA 17 44 4E EA 8E 0E 27 EA ...
T9DF0 16640:974.630   CPU_WriteMem(668 bytes @ 0x20000164)
T9DF0 16640:975.694 - 1.113ms returns 0x29C
T9DF0 16640:975.724 JLINK_WriteMem(0x20000400, 0x164 Bytes, ...)
T9DF0 16640:975.732   Data:  0C F0 D0 FB 07 46 00 22 50 4B 0C F0 73 FD 05 46 ...
T9DF0 16640:975.744   CPU_WriteMem(356 bytes @ 0x20000400)
T9DF0 16640:976.341 - 0.631ms returns 0x164
T9DF0 16640:976.366 JLINK_HasError()
T9DF0 16640:976.377 JLINK_WriteReg(R0, 0x08001800)
T9DF0 16640:976.389 - 0.015ms returns 0
T9DF0 16640:976.398 JLINK_WriteReg(R1, 0x00000400)
T9DF0 16640:976.406 - 0.010ms returns 0
T9DF0 16640:976.414 JLINK_WriteReg(R2, 0x20000164)
T9DF0 16640:976.420 - 0.010ms returns 0
T9DF0 16640:976.428 JLINK_WriteReg(R3, 0x00000000)
T9DF0 16640:976.435 - 0.010ms returns 0
